T97A4 000:000.420   SEGGER J-Link V8.12c Log File
T97A4 000:000.521   DLL Compiled: Jan 22 2025 12:55:59
T97A4 000:000.527   Logging started @ 2025-04-20 14:19
T97A4 000:000.533   Process: C:\Users\a8456\.eclipse\com.renesas.platform_1309835749\DebugComp\RA\e2-server-gdb.exe
T97A4 000:000.541 - 0.538ms 
T97A4 000:000.552 JLINK_GetDLLVersion()
T97A4 000:000.558 - 0.006ms returns 81203
T97A4 000:002.058 JLINK_OpenEx(...)
T97A4 000:008.076   Firmware: J-Link V9 compiled May  7 2021 16:26:12
T97A4 000:008.871   Firmware: J-Link V9 compiled May  7 2021 16:26:12
T97A4 000:008.989   Decompressing FW timestamp took 90 us
T97A4 000:014.502   Hardware: V9.60
T97A4 000:014.517   S/N: 69660718
T97A4 000:014.525   OEM: SEGGER
T97A4 000:014.533   Feature(s): RDI, GDB, FlashDL, FlashBP, JFlash
T97A4 000:015.006   Bootloader: (FW returned invalid version)
T97A4 000:015.682   TELNET listener socket opened on port 19021
T97A4 000:015.798   WEBSRV WEBSRV_Init(): Starting webserver thread(s)
T97A4 000:015.991   WEBSRV Webserver running on local port 19080
T97A4 000:016.098   Looking for J-Link GUI Server exe at: C:\Users\a8456\.eclipse\com.renesas.platform_1309835749\DebugComp\RA\ARM\Segger_v8.12.3\JLinkGUIServer.exe
T97A4 000:016.175   Looking for J-Link GUI Server exe at: C:\Program Files\SEGGER\JLink_V818\JLinkGUIServer.exe
T97A4 000:016.200   Forking J-Link GUI Server: C:\Program Files\SEGGER\JLink_V818\JLinkGUIServer.exe
T97A4 000:039.175   J-Link GUI Server info: "J-Link GUI server V8.18 "
T97A4 000:046.682 - 44.603ms returns "O.K."
T97A4 000:046.782 JLINK_TIF_Select(JLINKARM_TIF_SWD)
T97A4 000:047.381 - 0.598ms returns 0x00
T97A4 000:047.414 JLINK_ClrRESET()
T97A4 000:047.810 - 0.395ms 
T97A4 000:098.438 JLINK_SetSpeed(1500)
T97A4 000:098.729 - 0.295ms 
T97A4 000:099.052 JLINK_CORESIGHT_Configure(PerformTIFInit=0)
T97A4 000:099.507 - 0.461ms returns 0
T97A4 000:099.529 JLINK_CORESIGHT_ReadAPDPReg(DP reg 0x00)
T97A4 000:100.002   Value=0x6BA02477
T97A4 000:100.015 - 0.490ms returns 0
T97A4 000:100.025 JLINK_CORESIGHT_WriteAPDPReg(DP reg 0x00, 0x0000001F)
T97A4 000:100.311 - 0.285ms returns 0
T97A4 000:100.328 JLINK_CORESIGHT_ReadAPDPReg(DP reg 0x00)
T97A4 000:100.504   Value=0x6BA02477
T97A4 000:100.515 - 0.187ms returns 0
T97A4 000:100.524 JLINK_CORESIGHT_WriteAPDPReg(DP reg 0x02, 0x00000000)
T97A4 000:100.715 - 0.190ms returns 0
T97A4 000:100.722 JLINK_CORESIGHT_WriteAPDPReg(DP reg 0x01, 0x50000000)
T97A4 000:100.896 - 0.174ms returns 0
T97A4 000:100.928 JLINK_CORESIGHT_ReadAPDPReg(DP reg 0x01)
T97A4 000:101.122   Value=0xD0000000
T97A4 000:101.131 - 0.203ms returns 0
T97A4 000:101.140 JLINK_CORESIGHT_ReadAPDPReg(DP reg 0x01)
T97A4 000:101.373   Value=0xD0000000
T97A4 000:101.384 - 0.243ms returns 0
T97A4 000:101.393 JLINK_CORESIGHT_ReadAPDPReg(DP reg 0x01)
T97A4 000:101.569   Value=0xD0000000
T97A4 000:101.581 - 0.187ms returns 0
T97A4 000:101.589 JLINK_CORESIGHT_ReadAPDPReg(DP reg 0x01)
T97A4 000:101.764   Value=0xD0000000
T97A4 000:101.772 - 0.182ms returns 0
T97A4 000:101.780 JLINK_CORESIGHT_ReadAPDPReg(DP reg 0x01)
T97A4 000:101.947   Value=0xD0000000
T97A4 000:101.956 - 0.176ms returns 0
T97A4 000:101.963 JLINK_CORESIGHT_ReadAPDPReg(DP reg 0x01)
T97A4 000:102.139   Value=0xD0000000
T97A4 000:102.148 - 0.185ms returns 0
T97A4 000:102.155 JLINK_CORESIGHT_ReadAPDPReg(DP reg 0x01)
T97A4 000:102.405   Value=0xD0000000
T97A4 000:102.415 - 0.260ms returns 0
T97A4 000:102.424 JLINK_CORESIGHT_ReadAPDPReg(DP reg 0x01)
T97A4 000:102.595   Value=0xF0000000
T97A4 000:102.606 - 0.182ms returns 0
T97A4 000:102.615 JLINK_CORESIGHT_WriteAPDPReg(DP reg 0x00, 0x0000001F)
T97A4 000:102.782 - 0.167ms returns 0
T97A4 000:102.789 JLINK_CORESIGHT_ReadAPDPReg(DP reg 0x00)
T97A4 000:102.970   Value=0x6BA02477
T97A4 000:102.978 - 0.188ms returns 0
T97A4 000:102.986 JLINK_CORESIGHT_WriteAPDPReg(DP reg 0x01, 0x54000000)
T97A4 000:103.157 - 0.171ms returns 0
T97A4 000:103.166 JLINK_CORESIGHT_WriteAPDPReg(DP reg 0x01, 0x50000F00)
T97A4 000:103.406 - 0.240ms returns 0
T97A4 000:103.414 JLINK_CORESIGHT_WriteAPDPReg(DP reg 0x02, 0x01000000)
T97A4 000:103.666 - 0.251ms returns 0
T97A4 000:103.679 JLINK_CORESIGHT_WriteAPDPReg(AP reg 0x00, 0x80000002)
T97A4 000:103.862 - 0.184ms returns 0
T97A4 000:103.871 JLINK_CORESIGHT_WriteAPDPReg(AP reg 0x01, 0x80011100)
T97A4 000:104.055 - 0.184ms returns 0
T97A4 000:104.064 JLINK_CORESIGHT_WriteAPDPReg(AP reg 0x03, 0x000000A5)
T97A4 000:104.274 - 0.210ms returns 0
T97A4 000:104.291 JLINK_CORESIGHT_WriteAPDPReg(AP reg 0x00, 0x80000002)
T97A4 000:104.466 - 0.175ms returns 0
T97A4 000:104.478 JLINK_CORESIGHT_WriteAPDPReg(AP reg 0x01, 0x80011100)
T97A4 000:104.677 - 0.199ms returns 0
T97A4 000:104.687 JLINK_CORESIGHT_ReadAPDPReg(AP reg 0x03)
T97A4 000:104.927   Value=0x000000A5
T97A4 000:104.938 - 0.251ms returns 0
T97A4 000:104.947 JLINK_ClrTMS()
T97A4 000:104.985 - 0.037ms 
T97A4 000:110.465 JLINK_SetTCK()
T97A4 000:110.592 - 0.127ms returns 0
T97A4 000:116.432 JLINK_SetRESET()
T97A4 000:116.499 - 0.066ms 
T97A4 000:317.278 JLINK_CORESIGHT_WriteAPDPReg(AP reg 0x00, 0x80000002)
T97A4 000:317.579 - 0.300ms returns 0
T97A4 000:317.612 JLINK_CORESIGHT_WriteAPDPReg(AP reg 0x01, 0x80011100)
T97A4 000:317.843 - 0.231ms returns 0
T97A4 000:317.868 JLINK_CORESIGHT_ReadAPDPReg(AP reg 0x03)
T97A4 000:318.199   Value=0x00000000
T97A4 000:318.216 - 0.349ms returns 0
T97A4 000:318.230 JLINK_CORESIGHT_WriteAPDPReg(AP reg 0x00, 0x80000002)
T97A4 000:318.465 - 0.234ms returns 0
T97A4 000:318.486 JLINK_CORESIGHT_WriteAPDPReg(AP reg 0x01, 0x80011140)
T97A4 000:318.672 - 0.185ms returns 0
T97A4 000:318.689 JLINK_CORESIGHT_ReadAPDPReg(AP reg 0x03)
T97A4 000:318.922   Value=0x00000002
T97A4 000:318.944 - 0.255ms returns 0
T97A4 000:318.958 JLINK_CORESIGHT_WriteAPDPReg(AP reg 0x00, 0x80000002)
T97A4 000:319.149 - 0.191ms returns 0
T97A4 000:319.164 JLINK_CORESIGHT_WriteAPDPReg(AP reg 0x01, 0x80011120)
T97A4 000:319.621 - 0.457ms returns 0
T97A4 000:319.644 JLINK_CORESIGHT_WriteAPDPReg(AP reg 0x03, 0x00000055)
T97A4 000:319.839 - 0.194ms returns 0
T97A4 000:319.860 JLINK_CORESIGHT_WriteAPDPReg(AP reg 0x00, 0x80000002)
T97A4 000:320.073 - 0.213ms returns 0
T97A4 000:320.101 JLINK_CORESIGHT_WriteAPDPReg(AP reg 0x01, 0x80011140)
T97A4 000:320.308 - 0.206ms returns 0
T97A4 000:320.324 JLINK_CORESIGHT_ReadAPDPReg(AP reg 0x03)
T97A4 000:320.567   Value=0x00000000
T97A4 000:320.577 - 0.252ms returns 0
T97A4 000:320.585 JLINK_CORESIGHT_WriteAPDPReg(AP reg 0x00, 0x80000002)
T97A4 000:320.776 - 0.191ms returns 0
T97A4 000:320.783 JLINK_CORESIGHT_WriteAPDPReg(AP reg 0x01, 0x80011130)
T97A4 000:320.962 - 0.179ms returns 0
T97A4 000:320.971 JLINK_CORESIGHT_ReadAPDPReg(AP reg 0x03)
T97A4 000:321.293   Value=0x000000C6
T97A4 000:321.303 - 0.331ms returns 0
T97A4 000:321.319 JLINK_CORESIGHT_WriteAPDPReg(AP reg 0x00, 0x80000002)
T97A4 000:321.502 - 0.182ms returns 0
T97A4 000:321.511 JLINK_CORESIGHT_WriteAPDPReg(AP reg 0x01, 0x80011140)
T97A4 000:321.737 - 0.226ms returns 0
T97A4 000:321.745 JLINK_CORESIGHT_ReadAPDPReg(AP reg 0x03)
T97A4 000:321.960   Value=0x00000002
T97A4 000:321.969 - 0.223ms returns 0
T97A4 000:321.976 JLINK_CORESIGHT_WriteAPDPReg(AP reg 0x00, 0x80000002)
T97A4 000:322.138 - 0.162ms returns 0
T97A4 000:322.145 JLINK_CORESIGHT_WriteAPDPReg(AP reg 0x01, 0x80011120)
T97A4 000:322.403 - 0.257ms returns 0
T97A4 000:322.412 JLINK_CORESIGHT_WriteAPDPReg(AP reg 0x03, 0x3A010001)
T97A4 000:322.617 - 0.205ms returns 0
T97A4 000:322.633 JLINK_CORESIGHT_WriteAPDPReg(AP reg 0x00, 0x80000002)
T97A4 000:322.814 - 0.181ms returns 0
T97A4 000:322.822 JLINK_CORESIGHT_WriteAPDPReg(AP reg 0x01, 0x80011140)
T97A4 000:323.002 - 0.180ms returns 0
T97A4 000:323.028 JLINK_CORESIGHT_ReadAPDPReg(AP reg 0x03)
T97A4 000:323.263   Value=0x00000002
T97A4 000:323.273 - 0.245ms returns 0
T97A4 000:323.280 JLINK_CORESIGHT_WriteAPDPReg(AP reg 0x00, 0x80000002)
T97A4 000:323.460 - 0.180ms returns 0
T97A4 000:323.472 JLINK_CORESIGHT_WriteAPDPReg(AP reg 0x01, 0x80011120)
T97A4 000:323.656 - 0.183ms returns 0
T97A4 000:323.709 JLINK_CORESIGHT_WriteAPDPReg(AP reg 0x03, 0x000003C5)
T97A4 000:323.920 - 0.216ms returns 0
T97A4 000:323.932 JLINK_CORESIGHT_WriteAPDPReg(AP reg 0x00, 0x80000002)
T97A4 000:324.164 - 0.230ms returns 0
T97A4 000:324.189 JLINK_CORESIGHT_WriteAPDPReg(AP reg 0x01, 0x80011140)
T97A4 000:324.421 - 0.232ms returns 0
T97A4 000:324.447 JLINK_CORESIGHT_ReadAPDPReg(AP reg 0x03)
T97A4 000:324.751   Value=0x00000002
T97A4 000:324.775 - 0.327ms returns 0
T97A4 000:324.788 JLINK_CORESIGHT_ReadAPDPReg(AP reg 0x03)
T97A4 000:325.030   Value=0x00000002
T97A4 000:325.051 - 0.262ms returns 0
T97A4 000:325.063 JLINK_CORESIGHT_ReadAPDPReg(AP reg 0x03)
T97A4 000:325.307   Value=0x00000002
T97A4 000:325.330 - 0.266ms returns 0
T97A4 000:325.343 JLINK_CORESIGHT_ReadAPDPReg(AP reg 0x03)
T97A4 000:325.619   Value=0x00000002
T97A4 000:325.643 - 0.299ms returns 0
T97A4 000:325.658 JLINK_CORESIGHT_ReadAPDPReg(AP reg 0x03)
T97A4 000:325.879   Value=0x00000002
T97A4 000:325.897 - 0.238ms returns 0
T97A4 000:325.910 JLINK_CORESIGHT_ReadAPDPReg(AP reg 0x03)
T97A4 000:326.168   Value=0x00000000
T97A4 000:326.185 - 0.274ms returns 0
T97A4 000:326.199 JLINK_CORESIGHT_WriteAPDPReg(AP reg 0x00, 0x80000002)
T97A4 000:326.413 - 0.213ms returns 0
T97A4 000:326.444 JLINK_CORESIGHT_WriteAPDPReg(AP reg 0x01, 0x80011130)
T97A4 000:326.651 - 0.207ms returns 0
T97A4 000:326.660 JLINK_CORESIGHT_ReadAPDPReg(AP reg 0x03)
T97A4 000:326.877   Value=0x3A2A0081
T97A4 000:326.886 - 0.225ms returns 0
T97A4 000:326.893 JLINK_CORESIGHT_WriteAPDPReg(AP reg 0x00, 0x80000002)
T97A4 000:327.067 - 0.174ms returns 0
T97A4 000:327.075 JLINK_CORESIGHT_WriteAPDPReg(AP reg 0x01, 0x80011140)
T97A4 000:327.265 - 0.189ms returns 0
T97A4 000:327.273 JLINK_CORESIGHT_ReadAPDPReg(AP reg 0x03)
T97A4 000:327.494   Value=0x00000000
T97A4 000:327.502 - 0.229ms returns 0
T97A4 000:327.510 JLINK_CORESIGHT_WriteAPDPReg(AP reg 0x00, 0x80000002)
T97A4 000:327.690 - 0.179ms returns 0
T97A4 000:327.698 JLINK_CORESIGHT_WriteAPDPReg(AP reg 0x01, 0x80011130)
T97A4 000:327.873 - 0.175ms returns 0
T97A4 000:327.881 JLINK_CORESIGHT_ReadAPDPReg(AP reg 0x03)
T97A4 000:328.113   Value=0x80841E00
T97A4 000:328.129 - 0.248ms returns 0
T97A4 000:328.139 JLINK_CORESIGHT_WriteAPDPReg(AP reg 0x00, 0x80000002)
T97A4 000:328.590 - 0.449ms returns 0
T97A4 000:328.619 JLINK_CORESIGHT_WriteAPDPReg(AP reg 0x01, 0x80011140)
T97A4 000:328.800 - 0.181ms returns 0
T97A4 000:328.813 JLINK_CORESIGHT_ReadAPDPReg(AP reg 0x03)
T97A4 000:329.050   Value=0x00000000
T97A4 000:329.060 - 0.247ms returns 0
T97A4 000:329.069 JLINK_CORESIGHT_WriteAPDPReg(AP reg 0x00, 0x80000002)
T97A4 000:329.265 - 0.196ms returns 0
T97A4 000:329.273 JLINK_CORESIGHT_WriteAPDPReg(AP reg 0x01, 0x80011130)
T97A4 000:329.460 - 0.186ms returns 0
T97A4 000:329.469 JLINK_CORESIGHT_ReadAPDPReg(AP reg 0x03)
T97A4 000:329.696   Value=0x000D0803
T97A4 000:329.705 - 0.235ms returns 0
T97A4 000:329.713 JLINK_CORESIGHT_WriteAPDPReg(AP reg 0x00, 0x80000002)
T97A4 000:329.898 - 0.185ms returns 0
T97A4 000:329.906 JLINK_CORESIGHT_WriteAPDPReg(AP reg 0x01, 0x80011140)
T97A4 000:330.082 - 0.176ms returns 0
T97A4 000:330.090 JLINK_CORESIGHT_ReadAPDPReg(AP reg 0x03)
T97A4 000:330.315   Value=0x00000000
T97A4 000:330.323 - 0.233ms returns 0
T97A4 000:330.331 JLINK_CORESIGHT_WriteAPDPReg(AP reg 0x00, 0x80000002)
T97A4 000:330.526 - 0.195ms returns 0
T97A4 000:330.536 JLINK_CORESIGHT_WriteAPDPReg(AP reg 0x01, 0x80011130)
T97A4 000:330.716 - 0.181ms returns 0
T97A4 000:330.724 JLINK_CORESIGHT_ReadAPDPReg(AP reg 0x03)
T97A4 000:330.952   Value=0x31574B02
T97A4 000:330.960 - 0.236ms returns 0
T97A4 000:330.968 JLINK_CORESIGHT_WriteAPDPReg(AP reg 0x00, 0x80000002)
T97A4 000:331.150 - 0.182ms returns 0
T97A4 000:331.158 JLINK_CORESIGHT_WriteAPDPReg(AP reg 0x01, 0x80011140)
T97A4 000:331.375 - 0.216ms returns 0
T97A4 000:331.388 JLINK_CORESIGHT_ReadAPDPReg(AP reg 0x03)
T97A4 000:331.617   Value=0x00000000
T97A4 000:331.628 - 0.240ms returns 0
T97A4 000:331.636 JLINK_CORESIGHT_WriteAPDPReg(AP reg 0x00, 0x80000002)
T97A4 000:331.820 - 0.183ms returns 0
T97A4 000:331.831 JLINK_CORESIGHT_WriteAPDPReg(AP reg 0x01, 0x80011130)
T97A4 000:332.027 - 0.195ms returns 0
T97A4 000:332.035 JLINK_CORESIGHT_ReadAPDPReg(AP reg 0x03)
T97A4 000:332.266   Value=0x33D8AB74
T97A4 000:332.275 - 0.239ms returns 0
T97A4 000:332.282 JLINK_CORESIGHT_WriteAPDPReg(AP reg 0x00, 0x80000002)
T97A4 000:332.466 - 0.183ms returns 0
T97A4 000:332.475 JLINK_CORESIGHT_WriteAPDPReg(AP reg 0x01, 0x80011140)
T97A4 000:332.650 - 0.175ms returns 0
T97A4 000:332.659 JLINK_CORESIGHT_ReadAPDPReg(AP reg 0x03)
T97A4 000:332.897   Value=0x00000000
T97A4 000:332.906 - 0.247ms returns 0
T97A4 000:332.914 JLINK_CORESIGHT_WriteAPDPReg(AP reg 0x00, 0x80000002)
T97A4 000:333.092 - 0.178ms returns 0
T97A4 000:333.100 JLINK_CORESIGHT_WriteAPDPReg(AP reg 0x01, 0x80011130)
T97A4 000:333.295 - 0.195ms returns 0
T97A4 000:333.303 JLINK_CORESIGHT_ReadAPDPReg(AP reg 0x03)
T97A4 000:333.532   Value=0x30383334
T97A4 000:333.542 - 0.238ms returns 0
T97A4 000:333.550 JLINK_CORESIGHT_WriteAPDPReg(AP reg 0x00, 0x80000002)
T97A4 000:333.748 - 0.198ms returns 0
T97A4 000:333.756 JLINK_CORESIGHT_WriteAPDPReg(AP reg 0x01, 0x80011140)
T97A4 000:333.928 - 0.171ms returns 0
T97A4 000:333.955 JLINK_CORESIGHT_ReadAPDPReg(AP reg 0x03)
T97A4 000:334.186   Value=0x00000000
T97A4 000:334.196 - 0.242ms returns 0
T97A4 000:334.205 JLINK_CORESIGHT_WriteAPDPReg(AP reg 0x00, 0x80000002)
T97A4 000:334.402 - 0.197ms returns 0
T97A4 000:334.412 JLINK_CORESIGHT_WriteAPDPReg(AP reg 0x01, 0x80011130)
T97A4 000:334.591 - 0.179ms returns 0
T97A4 000:334.599 JLINK_CORESIGHT_ReadAPDPReg(AP reg 0x03)
T97A4 000:334.829   Value=0x25123130
T97A4 000:334.837 - 0.238ms returns 0
T97A4 000:334.845 JLINK_CORESIGHT_WriteAPDPReg(AP reg 0x00, 0x80000002)
T97A4 000:335.028 - 0.183ms returns 0
T97A4 000:335.036 JLINK_CORESIGHT_WriteAPDPReg(AP reg 0x01, 0x80011140)
T97A4 000:335.264 - 0.228ms returns 0
T97A4 000:335.272 JLINK_CORESIGHT_ReadAPDPReg(AP reg 0x03)
T97A4 000:335.498   Value=0x00000000
T97A4 000:335.508 - 0.235ms returns 0
T97A4 000:335.517 JLINK_CORESIGHT_WriteAPDPReg(AP reg 0x00, 0x80000002)
T97A4 000:335.694 - 0.177ms returns 0
T97A4 000:335.702 JLINK_CORESIGHT_WriteAPDPReg(AP reg 0x01, 0x80011130)
T97A4 000:335.872 - 0.169ms returns 0
T97A4 000:335.880 JLINK_CORESIGHT_ReadAPDPReg(AP reg 0x03)
T97A4 000:336.124   Value=0x46375225
T97A4 000:336.133 - 0.253ms returns 0
T97A4 000:336.141 JLINK_CORESIGHT_WriteAPDPReg(AP reg 0x00, 0x80000002)
T97A4 000:336.402 - 0.261ms returns 0
T97A4 000:336.418 JLINK_CORESIGHT_WriteAPDPReg(AP reg 0x01, 0x80011140)
T97A4 000:336.624 - 0.206ms returns 0
T97A4 000:336.636 JLINK_CORESIGHT_ReadAPDPReg(AP reg 0x03)
T97A4 000:336.863   Value=0x00000000
T97A4 000:336.872 - 0.235ms returns 0
T97A4 000:336.879 JLINK_CORESIGHT_WriteAPDPReg(AP reg 0x00, 0x80000002)
T97A4 000:337.075 - 0.196ms returns 0
T97A4 000:337.083 JLINK_CORESIGHT_WriteAPDPReg(AP reg 0x01, 0x80011130)
T97A4 000:337.265 - 0.182ms returns 0
T97A4 000:337.273 JLINK_CORESIGHT_ReadAPDPReg(AP reg 0x03)
T97A4 000:337.498   Value=0x314C3441
T97A4 000:337.508 - 0.235ms returns 0
T97A4 000:337.516 JLINK_CORESIGHT_WriteAPDPReg(AP reg 0x00, 0x80000002)
T97A4 000:337.695 - 0.178ms returns 0
T97A4 000:337.703 JLINK_CORESIGHT_WriteAPDPReg(AP reg 0x01, 0x80011140)
T97A4 000:337.898 - 0.195ms returns 0
T97A4 000:337.906 JLINK_CORESIGHT_ReadAPDPReg(AP reg 0x03)
T97A4 000:338.151   Value=0x00000000
T97A4 000:338.159 - 0.253ms returns 0
T97A4 000:338.167 JLINK_CORESIGHT_WriteAPDPReg(AP reg 0x00, 0x80000002)
T97A4 000:338.384 - 0.216ms returns 0
T97A4 000:338.403 JLINK_CORESIGHT_WriteAPDPReg(AP reg 0x01, 0x80011130)
T97A4 000:338.591 - 0.188ms returns 0
T97A4 000:338.602 JLINK_CORESIGHT_ReadAPDPReg(AP reg 0x03)
T97A4 000:338.819   Value=0x43344442
T97A4 000:338.828 - 0.226ms returns 0
T97A4 000:338.836 JLINK_CORESIGHT_WriteAPDPReg(AP reg 0x00, 0x80000002)
T97A4 000:339.026 - 0.190ms returns 0
T97A4 000:339.034 JLINK_CORESIGHT_WriteAPDPReg(AP reg 0x01, 0x80011140)
T97A4 000:339.263 - 0.229ms returns 0
T97A4 000:339.311 JLINK_CORESIGHT_ReadAPDPReg(AP reg 0x03)
T97A4 000:339.529   Value=0x00000000
T97A4 000:339.541 - 0.229ms returns 0
T97A4 000:339.549 JLINK_CORESIGHT_WriteAPDPReg(AP reg 0x00, 0x80000002)
T97A4 000:339.749 - 0.199ms returns 0
T97A4 000:339.761 JLINK_CORESIGHT_WriteAPDPReg(AP reg 0x01, 0x80011130)
T97A4 000:339.954 - 0.192ms returns 0
T97A4 000:339.962 JLINK_CORESIGHT_ReadAPDPReg(AP reg 0x03)
T97A4 000:340.265   Value=0x20205046
T97A4 000:340.273 - 0.311ms returns 0
T97A4 000:340.281 JLINK_CORESIGHT_WriteAPDPReg(AP reg 0x00, 0x80000002)
T97A4 000:340.869 - 0.587ms returns 0
T97A4 000:340.918 JLINK_CORESIGHT_WriteAPDPReg(AP reg 0x01, 0x80011140)
T97A4 000:341.160 - 0.249ms returns 0
T97A4 000:341.285 JLINK_CORESIGHT_ReadAPDPReg(AP reg 0x03)
T97A4 000:341.653   Value=0x00000000
T97A4 000:341.680 - 0.395ms returns 0
T97A4 000:341.696 JLINK_CORESIGHT_WriteAPDPReg(AP reg 0x00, 0x80000002)
T97A4 000:342.162 - 0.466ms returns 0
T97A4 000:342.188 JLINK_CORESIGHT_WriteAPDPReg(AP reg 0x01, 0x80011130)
T97A4 000:342.420 - 0.232ms returns 0
T97A4 000:342.444 JLINK_CORESIGHT_ReadAPDPReg(AP reg 0x03)
T97A4 000:342.697   Value=0x00032320
T97A4 000:342.736 - 0.291ms returns 0
T97A4 000:342.796 JLINK_CORESIGHT_WriteAPDPReg(AP reg 0x00, 0x80000002)
T97A4 000:343.001 - 0.205ms returns 0
T97A4 000:343.016 JLINK_CORESIGHT_WriteAPDPReg(AP reg 0x01, 0x80011140)
T97A4 000:343.262 - 0.246ms returns 0
T97A4 000:343.270 JLINK_CORESIGHT_ReadAPDPReg(AP reg 0x03)
T97A4 000:343.518   Value=0x00000002
T97A4 000:343.539 - 0.269ms returns 0
T97A4 000:343.547 JLINK_CORESIGHT_WriteAPDPReg(AP reg 0x00, 0x80000002)
T97A4 000:343.745 - 0.198ms returns 0
T97A4 000:343.753 JLINK_CORESIGHT_WriteAPDPReg(AP reg 0x01, 0x80011120)
T97A4 000:343.938 - 0.185ms returns 0
T97A4 000:343.945 JLINK_CORESIGHT_WriteAPDPReg(AP reg 0x03, 0x2C010001)
T97A4 000:344.151 - 0.206ms returns 0
T97A4 000:344.159 JLINK_CORESIGHT_WriteAPDPReg(AP reg 0x00, 0x80000002)
T97A4 000:344.411 - 0.252ms returns 0
T97A4 000:344.420 JLINK_CORESIGHT_WriteAPDPReg(AP reg 0x01, 0x80011140)
T97A4 000:344.619 - 0.198ms returns 0
T97A4 000:344.626 JLINK_CORESIGHT_ReadAPDPReg(AP reg 0x03)
T97A4 000:344.840   Value=0x00000002
T97A4 000:344.849 - 0.222ms returns 0
T97A4 000:344.856 JLINK_CORESIGHT_WriteAPDPReg(AP reg 0x00, 0x80000002)
T97A4 000:345.028 - 0.172ms returns 0
T97A4 000:345.036 JLINK_CORESIGHT_WriteAPDPReg(AP reg 0x01, 0x80011120)
T97A4 000:345.265 - 0.229ms returns 0
T97A4 000:345.272 JLINK_CORESIGHT_WriteAPDPReg(AP reg 0x03, 0x000003D3)
T97A4 000:345.465 - 0.193ms returns 0
T97A4 000:345.474 JLINK_CORESIGHT_WriteAPDPReg(AP reg 0x00, 0x80000002)
T97A4 000:345.649 - 0.175ms returns 0
T97A4 000:345.656 JLINK_CORESIGHT_WriteAPDPReg(AP reg 0x01, 0x80011140)
T97A4 000:345.830 - 0.173ms returns 0
T97A4 000:345.837 JLINK_CORESIGHT_ReadAPDPReg(AP reg 0x03)
T97A4 000:346.066   Value=0x00000002
T97A4 000:346.074 - 0.237ms returns 0
T97A4 000:346.081 JLINK_CORESIGHT_ReadAPDPReg(AP reg 0x03)
T97A4 000:346.288   Value=0x00000002
T97A4 000:346.297 - 0.215ms returns 0
T97A4 000:346.303 JLINK_CORESIGHT_ReadAPDPReg(AP reg 0x03)
T97A4 000:346.537   Value=0x00000002
T97A4 000:346.562 - 0.258ms returns 0
T97A4 000:346.581 JLINK_CORESIGHT_ReadAPDPReg(AP reg 0x03)
T97A4 000:346.820   Value=0x00000002
T97A4 000:346.843 - 0.261ms returns 0
T97A4 000:346.856 JLINK_CORESIGHT_ReadAPDPReg(AP reg 0x03)
T97A4 000:347.093   Value=0x00000002
T97A4 000:347.105 - 0.249ms returns 0
T97A4 000:347.112 JLINK_CORESIGHT_ReadAPDPReg(AP reg 0x03)
T97A4 000:347.348   Value=0x00000002
T97A4 000:347.356 - 0.244ms returns 0
T97A4 000:347.363 JLINK_CORESIGHT_ReadAPDPReg(AP reg 0x03)
T97A4 000:347.587   Value=0x00000000
T97A4 000:347.597 - 0.234ms returns 0
T97A4 000:347.605 JLINK_CORESIGHT_WriteAPDPReg(AP reg 0x00, 0x80000002)
T97A4 000:347.814 - 0.209ms returns 0
T97A4 000:347.822 JLINK_CORESIGHT_WriteAPDPReg(AP reg 0x01, 0x80011130)
T97A4 000:348.002 - 0.180ms returns 0
T97A4 000:348.009 JLINK_CORESIGHT_ReadAPDPReg(AP reg 0x03)
T97A4 000:348.264   Value=0x2C020081
T97A4 000:348.277 - 0.268ms returns 0
T97A4 000:348.283 JLINK_CORESIGHT_WriteAPDPReg(AP reg 0x00, 0x80000002)
T97A4 000:348.477 - 0.193ms returns 0
T97A4 000:348.486 JLINK_CORESIGHT_WriteAPDPReg(AP reg 0x01, 0x80011140)
T97A4 000:348.692 - 0.205ms returns 0
T97A4 000:348.699 JLINK_CORESIGHT_ReadAPDPReg(AP reg 0x03)
T97A4 000:348.958   Value=0x00000000
T97A4 000:348.966 - 0.266ms returns 0
T97A4 000:348.973 JLINK_CORESIGHT_WriteAPDPReg(AP reg 0x00, 0x80000002)
T97A4 000:349.165 - 0.192ms returns 0
T97A4 000:349.173 JLINK_CORESIGHT_WriteAPDPReg(AP reg 0x01, 0x80011130)
T97A4 000:349.410 - 0.237ms returns 0
T97A4 000:349.418 JLINK_CORESIGHT_ReadAPDPReg(AP reg 0x03)
T97A4 000:349.651   Value=0x0003D002
T97A4 000:349.660 - 0.241ms returns 0
T97A4 000:349.672 JLINK_CORESIGHT_WriteAPDPReg(AP reg 0x00, 0x80000002)
T97A4 000:349.840 - 0.167ms returns 0
T97A4 000:349.847 JLINK_CORESIGHT_WriteAPDPReg(AP reg 0x01, 0x80011140)
T97A4 000:350.023 - 0.176ms returns 0
T97A4 000:350.031 JLINK_CORESIGHT_ReadAPDPReg(AP reg 0x03)
T97A4 000:350.274   Value=0x00000002
T97A4 000:350.282 - 0.251ms returns 0
T97A4 000:350.289 JLINK_CORESIGHT_WriteAPDPReg(AP reg 0x00, 0x80000002)
T97A4 000:350.465 - 0.176ms returns 0
T97A4 000:350.488 JLINK_CORESIGHT_WriteAPDPReg(AP reg 0x01, 0x80011120)
T97A4 000:350.695 - 0.206ms returns 0
T97A4 000:350.711 JLINK_CORESIGHT_WriteAPDPReg(AP reg 0x03, 0x4F010001)
T97A4 000:350.900 - 0.189ms returns 0
T97A4 000:350.909 JLINK_CORESIGHT_WriteAPDPReg(AP reg 0x00, 0x80000002)
T97A4 000:351.083 - 0.173ms returns 0
T97A4 000:351.095 JLINK_CORESIGHT_WriteAPDPReg(AP reg 0x01, 0x80011140)
T97A4 000:351.294 - 0.199ms returns 0
T97A4 000:351.303 JLINK_CORESIGHT_ReadAPDPReg(AP reg 0x03)
T97A4 000:351.527   Value=0x00000002
T97A4 000:351.537 - 0.234ms returns 0
T97A4 000:351.544 JLINK_CORESIGHT_WriteAPDPReg(AP reg 0x00, 0x80000002)
T97A4 000:351.712 - 0.168ms returns 0
T97A4 000:351.720 JLINK_CORESIGHT_WriteAPDPReg(AP reg 0x01, 0x80011120)
T97A4 000:351.921 - 0.201ms returns 0
T97A4 000:351.929 JLINK_CORESIGHT_WriteAPDPReg(AP reg 0x03, 0x000003B0)
T97A4 000:352.116 - 0.188ms returns 0
T97A4 000:352.123 JLINK_CORESIGHT_WriteAPDPReg(AP reg 0x00, 0x80000002)
T97A4 000:352.316 - 0.192ms returns 0
T97A4 000:352.323 JLINK_CORESIGHT_WriteAPDPReg(AP reg 0x01, 0x80011140)
T97A4 000:352.503 - 0.180ms returns 0
T97A4 000:352.512 JLINK_CORESIGHT_ReadAPDPReg(AP reg 0x03)
T97A4 000:352.741   Value=0x00000000
T97A4 000:352.750 - 0.238ms returns 0
T97A4 000:352.757 JLINK_CORESIGHT_WriteAPDPReg(AP reg 0x00, 0x80000002)
T97A4 000:352.939 - 0.182ms returns 0
T97A4 000:352.946 JLINK_CORESIGHT_WriteAPDPReg(AP reg 0x01, 0x80011130)
T97A4 000:353.150 - 0.203ms returns 0
T97A4 000:353.157 JLINK_CORESIGHT_ReadAPDPReg(AP reg 0x03)
T97A4 000:353.444   Value=0x4F0B0081
T97A4 000:353.454 - 0.296ms returns 0
T97A4 000:353.461 JLINK_CORESIGHT_WriteAPDPReg(AP reg 0x00, 0x80000002)
T97A4 000:353.668 - 0.207ms returns 0
T97A4 000:353.675 JLINK_CORESIGHT_WriteAPDPReg(AP reg 0x01, 0x80011140)
T97A4 000:353.863 - 0.188ms returns 0
T97A4 000:353.871 JLINK_CORESIGHT_ReadAPDPReg(AP reg 0x03)
T97A4 000:354.130   Value=0x00000000
T97A4 000:354.138 - 0.267ms returns 0
T97A4 000:354.145 JLINK_CORESIGHT_WriteAPDPReg(AP reg 0x00, 0x80000002)
T97A4 000:354.406 - 0.260ms returns 0
T97A4 000:354.415 JLINK_CORESIGHT_WriteAPDPReg(AP reg 0x01, 0x80011130)
T97A4 000:354.619 - 0.203ms returns 0
T97A4 000:354.626 JLINK_CORESIGHT_ReadAPDPReg(AP reg 0x03)
T97A4 000:354.841   Value=0x20001700
T97A4 000:354.849 - 0.223ms returns 0
T97A4 000:354.856 JLINK_CORESIGHT_WriteAPDPReg(AP reg 0x00, 0x80000002)
T97A4 000:355.027 - 0.171ms returns 0
T97A4 000:355.034 JLINK_CORESIGHT_WriteAPDPReg(AP reg 0x01, 0x80011140)
T97A4 000:355.265 - 0.230ms returns 0
T97A4 000:355.272 JLINK_CORESIGHT_ReadAPDPReg(AP reg 0x03)
T97A4 000:355.494   Value=0x00000000
T97A4 000:355.508 - 0.235ms returns 0
T97A4 000:355.516 JLINK_CORESIGHT_WriteAPDPReg(AP reg 0x00, 0x80000002)
T97A4 000:355.708 - 0.191ms returns 0
T97A4 000:355.720 JLINK_CORESIGHT_WriteAPDPReg(AP reg 0x01, 0x80011130)
T97A4 000:355.906 - 0.185ms returns 0
T97A4 000:355.914 JLINK_CORESIGHT_ReadAPDPReg(AP reg 0x03)
T97A4 000:356.173   Value=0x0B000000
T97A4 000:356.181 - 0.267ms returns 0
T97A4 000:356.188 JLINK_CORESIGHT_WriteAPDPReg(AP reg 0x00, 0x80000002)
T97A4 000:356.414 - 0.226ms returns 0
T97A4 000:356.424 JLINK_CORESIGHT_WriteAPDPReg(AP reg 0x01, 0x80011140)
T97A4 000:356.620 - 0.196ms returns 0
T97A4 000:356.631 JLINK_CORESIGHT_ReadAPDPReg(AP reg 0x03)
T97A4 000:356.865   Value=0x00000000
T97A4 000:356.873 - 0.242ms returns 0
T97A4 000:356.880 JLINK_CORESIGHT_WriteAPDPReg(AP reg 0x00, 0x80000002)
T97A4 000:357.197 - 0.315ms returns 0
T97A4 000:357.225 JLINK_CORESIGHT_WriteAPDPReg(AP reg 0x01, 0x80011130)
T97A4 000:357.441 - 0.216ms returns 0
T97A4 000:357.493 JLINK_CORESIGHT_ReadAPDPReg(AP reg 0x03)
T97A4 000:357.871   Value=0x03541000
T97A4 000:357.897 - 0.403ms returns 0
T97A4 000:358.042 JLINK_CORESIGHT_WriteAPDPReg(AP reg 0x00, 0x80000002)
T97A4 000:358.279 - 0.237ms returns 0
T97A4 000:358.301 JLINK_CORESIGHT_WriteAPDPReg(AP reg 0x01, 0x80011140)
T97A4 000:358.661 - 0.359ms returns 0
T97A4 000:358.685 JLINK_CORESIGHT_ReadAPDPReg(AP reg 0x03)
T97A4 000:358.937   Value=0x00000002
T97A4 000:358.959 - 0.273ms returns 0
T97A4 000:358.973 JLINK_CORESIGHT_WriteAPDPReg(AP reg 0x00, 0x80000002)
T97A4 000:359.266 - 0.293ms returns 0
T97A4 000:359.283 JLINK_CORESIGHT_WriteAPDPReg(AP reg 0x01, 0x80011120)
T97A4 000:359.489 - 0.206ms returns 0
T97A4 000:359.498 JLINK_CORESIGHT_WriteAPDPReg(AP reg 0x03, 0x2C010001)
T97A4 000:359.717 - 0.218ms returns 0
T97A4 000:359.739 JLINK_CORESIGHT_WriteAPDPReg(AP reg 0x00, 0x80000002)
T97A4 000:359.948 - 0.209ms returns 0
T97A4 000:359.964 JLINK_CORESIGHT_WriteAPDPReg(AP reg 0x01, 0x80011140)
T97A4 000:360.265 - 0.300ms returns 0
T97A4 000:360.273 JLINK_CORESIGHT_ReadAPDPReg(AP reg 0x03)
T97A4 000:360.506   Value=0x00000002
T97A4 000:360.525 - 0.251ms returns 0
T97A4 000:360.532 JLINK_CORESIGHT_WriteAPDPReg(AP reg 0x00, 0x80000002)
T97A4 000:360.716 - 0.184ms returns 0
T97A4 000:360.724 JLINK_CORESIGHT_WriteAPDPReg(AP reg 0x01, 0x80011120)
T97A4 000:360.900 - 0.176ms returns 0
T97A4 000:360.907 JLINK_CORESIGHT_WriteAPDPReg(AP reg 0x03, 0x000003D3)
T97A4 000:361.082 - 0.174ms returns 0
T97A4 000:361.089 JLINK_CORESIGHT_WriteAPDPReg(AP reg 0x00, 0x80000002)
T97A4 000:361.297 - 0.208ms returns 0
T97A4 000:361.318 JLINK_CORESIGHT_WriteAPDPReg(AP reg 0x01, 0x80011140)
T97A4 000:361.529 - 0.211ms returns 0
T97A4 000:361.540 JLINK_CORESIGHT_ReadAPDPReg(AP reg 0x03)
T97A4 000:361.776   Value=0x00000002
T97A4 000:361.785 - 0.245ms returns 0
T97A4 000:361.792 JLINK_CORESIGHT_ReadAPDPReg(AP reg 0x03)
T97A4 000:362.034   Value=0x00000002
T97A4 000:362.058 - 0.265ms returns 0
T97A4 000:362.072 JLINK_CORESIGHT_ReadAPDPReg(AP reg 0x03)
T97A4 000:362.305   Value=0x00000002
T97A4 000:362.317 - 0.244ms returns 0
T97A4 000:362.324 JLINK_CORESIGHT_ReadAPDPReg(AP reg 0x03)
T97A4 000:362.552   Value=0x00000002
T97A4 000:362.563 - 0.238ms returns 0
T97A4 000:362.571 JLINK_CORESIGHT_ReadAPDPReg(AP reg 0x03)
T97A4 000:362.803   Value=0x00000002
T97A4 000:362.811 - 0.240ms returns 0
T97A4 000:362.818 JLINK_CORESIGHT_ReadAPDPReg(AP reg 0x03)
T97A4 000:363.032   Value=0x00000002
T97A4 000:363.040 - 0.221ms returns 0
T97A4 000:363.047 JLINK_CORESIGHT_ReadAPDPReg(AP reg 0x03)
T97A4 000:363.264   Value=0x00000002
T97A4 000:363.272 - 0.225ms returns 0
T97A4 000:363.279 JLINK_CORESIGHT_ReadAPDPReg(AP reg 0x03)
T97A4 000:363.499   Value=0x00000002
T97A4 000:363.507 - 0.228ms returns 0
T97A4 000:363.513 JLINK_CORESIGHT_ReadAPDPReg(AP reg 0x03)
T97A4 000:363.745   Value=0x00000002
T97A4 000:363.753 - 0.239ms returns 0
T97A4 000:363.760 JLINK_CORESIGHT_ReadAPDPReg(AP reg 0x03)
T97A4 000:363.960   Value=0x00000002
T97A4 000:363.968 - 0.208ms returns 0
T97A4 000:363.975 JLINK_CORESIGHT_ReadAPDPReg(AP reg 0x03)
T97A4 000:364.185   Value=0x00000002
T97A4 000:364.193 - 0.218ms returns 0
T97A4 000:364.203 JLINK_CORESIGHT_ReadAPDPReg(AP reg 0x03)
T97A4 000:364.421   Value=0x00000000
T97A4 000:364.432 - 0.229ms returns 0
T97A4 000:364.439 JLINK_CORESIGHT_WriteAPDPReg(AP reg 0x00, 0x80000002)
T97A4 000:364.651 - 0.211ms returns 0
T97A4 000:364.658 JLINK_CORESIGHT_WriteAPDPReg(AP reg 0x01, 0x80011130)
T97A4 000:364.849 - 0.191ms returns 0
T97A4 000:364.856 JLINK_CORESIGHT_ReadAPDPReg(AP reg 0x03)
T97A4 000:365.080   Value=0x2C020081
T97A4 000:365.088 - 0.232ms returns 0
T97A4 000:365.095 JLINK_CORESIGHT_WriteAPDPReg(AP reg 0x00, 0x80000002)
T97A4 000:365.270 - 0.174ms returns 0
T97A4 000:365.292 JLINK_CORESIGHT_WriteAPDPReg(AP reg 0x01, 0x80011140)
T97A4 000:365.501 - 0.209ms returns 0
T97A4 000:365.523 JLINK_CORESIGHT_ReadAPDPReg(AP reg 0x03)
T97A4 000:365.777   Value=0x00000000
T97A4 000:365.794 - 0.270ms returns 0
T97A4 000:365.804 JLINK_CORESIGHT_WriteAPDPReg(AP reg 0x00, 0x80000002)
T97A4 000:366.026 - 0.222ms returns 0
T97A4 000:366.035 JLINK_CORESIGHT_WriteAPDPReg(AP reg 0x01, 0x80011130)
T97A4 000:366.276 - 0.241ms returns 0
T97A4 000:366.288 JLINK_CORESIGHT_ReadAPDPReg(AP reg 0x03)
T97A4 000:366.535   Value=0x0003D002
T97A4 000:366.553 - 0.264ms returns 0
T97A4 000:366.597 JLINK_CORESIGHT_WriteAPDPReg(AP reg 0x00, 0x80000002)
T97A4 000:366.780 - 0.182ms returns 0
T97A4 000:366.793 JLINK_CORESIGHT_WriteAPDPReg(AP reg 0x01, 0x80011140)
T97A4 000:366.974 - 0.180ms returns 0
T97A4 000:366.984 JLINK_CORESIGHT_ReadAPDPReg(AP reg 0x03)
T97A4 000:367.265   Value=0x00000002
T97A4 000:367.273 - 0.288ms returns 0
T97A4 000:367.280 JLINK_CORESIGHT_WriteAPDPReg(AP reg 0x00, 0x80000002)
T97A4 000:367.456 - 0.176ms returns 0
T97A4 000:367.465 JLINK_CORESIGHT_WriteAPDPReg(AP reg 0x01, 0x80011120)
T97A4 000:367.651 - 0.185ms returns 0
T97A4 000:367.658 JLINK_CORESIGHT_WriteAPDPReg(AP reg 0x03, 0x4E0B0001)
T97A4 000:367.840 - 0.181ms returns 0
T97A4 000:367.848 JLINK_CORESIGHT_WriteAPDPReg(AP reg 0x00, 0x80000002)
T97A4 000:368.027 - 0.179ms returns 0
T97A4 000:368.035 JLINK_CORESIGHT_WriteAPDPReg(AP reg 0x01, 0x80011140)
T97A4 000:368.264 - 0.229ms returns 0
T97A4 000:368.271 JLINK_CORESIGHT_ReadAPDPReg(AP reg 0x03)
T97A4 000:368.506   Value=0x00000002
T97A4 000:368.521 - 0.249ms returns 0
T97A4 000:368.530 JLINK_CORESIGHT_WriteAPDPReg(AP reg 0x00, 0x80000002)
T97A4 000:368.751 - 0.221ms returns 0
T97A4 000:368.775 JLINK_CORESIGHT_WriteAPDPReg(AP reg 0x01, 0x80011120)
T97A4 000:369.012 - 0.240ms returns 0
T97A4 000:369.049 JLINK_CORESIGHT_WriteAPDPReg(AP reg 0x03, 0x20001600)
T97A4 000:369.269 - 0.219ms returns 0
T97A4 000:369.288 JLINK_CORESIGHT_WriteAPDPReg(AP reg 0x00, 0x80000002)
T97A4 000:369.500 - 0.211ms returns 0
T97A4 000:369.518 JLINK_CORESIGHT_WriteAPDPReg(AP reg 0x01, 0x80011140)
T97A4 000:369.710 - 0.192ms returns 0
T97A4 000:369.731 JLINK_CORESIGHT_ReadAPDPReg(AP reg 0x03)
T97A4 000:369.969   Value=0x00000002
T97A4 000:369.983 - 0.252ms returns 0
T97A4 000:369.992 JLINK_CORESIGHT_WriteAPDPReg(AP reg 0x00, 0x80000002)
T97A4 000:370.276 - 0.284ms returns 0
T97A4 000:370.299 JLINK_CORESIGHT_WriteAPDPReg(AP reg 0x01, 0x80011120)
T97A4 000:370.543 - 0.244ms returns 0
T97A4 000:370.566 JLINK_CORESIGHT_WriteAPDPReg(AP reg 0x03, 0x0B000000)
T97A4 000:370.778 - 0.212ms returns 0
T97A4 000:370.797 JLINK_CORESIGHT_WriteAPDPReg(AP reg 0x00, 0x80000002)
T97A4 000:371.005 - 0.207ms returns 0
T97A4 000:371.019 JLINK_CORESIGHT_WriteAPDPReg(AP reg 0x01, 0x80011140)
T97A4 000:371.305 - 0.285ms returns 0
T97A4 000:371.327 JLINK_CORESIGHT_ReadAPDPReg(AP reg 0x03)
T97A4 000:371.572   Value=0x00000002
T97A4 000:371.594 - 0.266ms returns 0
T97A4 000:371.608 JLINK_CORESIGHT_WriteAPDPReg(AP reg 0x00, 0x80000002)
T97A4 000:371.797 - 0.190ms returns 0
T97A4 000:371.812 JLINK_CORESIGHT_WriteAPDPReg(AP reg 0x01, 0x80011120)
T97A4 000:372.029 - 0.217ms returns 0
T97A4 000:372.043 JLINK_CORESIGHT_WriteAPDPReg(AP reg 0x03, 0x03561000)
T97A4 000:372.270 - 0.226ms returns 0
T97A4 000:372.285 JLINK_CORESIGHT_WriteAPDPReg(AP reg 0x00, 0x80000002)
T97A4 000:372.504 - 0.219ms returns 0
T97A4 000:372.597 JLINK_CORESIGHT_WriteAPDPReg(AP reg 0x01, 0x80011140)
T97A4 000:372.805 - 0.208ms returns 0
T97A4 000:372.821 JLINK_CORESIGHT_ReadAPDPReg(AP reg 0x03)
T97A4 000:373.057   Value=0x00000002
T97A4 000:373.074 - 0.253ms returns 0
T97A4 000:373.083 JLINK_CORESIGHT_ReadAPDPReg(AP reg 0x03)
T97A4 000:373.300   Value=0x00000002
T97A4 000:373.309 - 0.226ms returns 0
T97A4 000:373.316 JLINK_CORESIGHT_ReadAPDPReg(AP reg 0x03)
T97A4 000:373.551   Value=0x00000002
T97A4 000:373.561 - 0.245ms returns 0
T97A4 000:373.568 JLINK_CORESIGHT_ReadAPDPReg(AP reg 0x03)
T97A4 000:374.261   Value=0x00000002
T97A4 000:374.291 - 0.722ms returns 0
T97A4 000:374.308 JLINK_CORESIGHT_ReadAPDPReg(AP reg 0x03)
T97A4 000:374.713   Value=0x00000002
T97A4 000:374.728 - 0.420ms returns 0
T97A4 000:374.736 JLINK_CORESIGHT_ReadAPDPReg(AP reg 0x03)
T97A4 000:375.236   Value=0x00000002
T97A4 000:375.251 - 0.514ms returns 0
T97A4 000:375.259 JLINK_CORESIGHT_ReadAPDPReg(AP reg 0x03)
T97A4 000:375.822   Value=0x00000002
T97A4 000:375.866 - 0.606ms returns 0
T97A4 000:375.881 JLINK_CORESIGHT_ReadAPDPReg(AP reg 0x03)
T97A4 000:376.766   Value=0x00000002
T97A4 000:376.798 - 0.916ms returns 0
T97A4 000:376.814 JLINK_CORESIGHT_ReadAPDPReg(AP reg 0x03)
T97A4 000:377.136   Value=0x00000002
T97A4 000:377.165 - 0.351ms returns 0
T97A4 000:377.181 JLINK_CORESIGHT_ReadAPDPReg(AP reg 0x03)
T97A4 000:377.450   Value=0x00000002
T97A4 000:377.468 - 0.286ms returns 0
T97A4 000:377.477 JLINK_CORESIGHT_ReadAPDPReg(AP reg 0x03)
T97A4 000:377.712   Value=0x00000002
T97A4 000:377.721 - 0.244ms returns 0
T97A4 000:377.728 JLINK_CORESIGHT_ReadAPDPReg(AP reg 0x03)
T97A4 000:377.939   Value=0x00000002
T97A4 000:377.949 - 0.220ms returns 0
T97A4 000:377.957 JLINK_CORESIGHT_ReadAPDPReg(AP reg 0x03)
T97A4 000:378.281   Value=0x00000002
T97A4 000:378.308 - 0.350ms returns 0
T97A4 000:378.322 JLINK_CORESIGHT_ReadAPDPReg(AP reg 0x03)
T97A4 000:378.554   Value=0x00000002
T97A4 000:378.579 - 0.257ms returns 0
T97A4 000:378.593 JLINK_CORESIGHT_ReadAPDPReg(AP reg 0x03)
T97A4 000:378.821   Value=0x00000002
T97A4 000:378.866 - 0.272ms returns 0
T97A4 000:378.881 JLINK_CORESIGHT_ReadAPDPReg(AP reg 0x03)
T97A4 000:379.136   Value=0x00000002
T97A4 000:379.160 - 0.278ms returns 0
T97A4 000:379.173 JLINK_CORESIGHT_ReadAPDPReg(AP reg 0x03)
T97A4 000:379.448   Value=0x00000002
T97A4 000:379.466 - 0.292ms returns 0
T97A4 000:379.478 JLINK_CORESIGHT_ReadAPDPReg(AP reg 0x03)
T97A4 000:379.713   Value=0x00000002
T97A4 000:379.730 - 0.251ms returns 0
T97A4 000:379.742 JLINK_CORESIGHT_ReadAPDPReg(AP reg 0x03)
T97A4 000:379.988   Value=0x00000002
T97A4 000:380.004 - 0.262ms returns 0
T97A4 000:380.016 JLINK_CORESIGHT_ReadAPDPReg(AP reg 0x03)
T97A4 000:380.267   Value=0x00000002
T97A4 000:380.283 - 0.267ms returns 0
T97A4 000:380.296 JLINK_CORESIGHT_ReadAPDPReg(AP reg 0x03)
T97A4 000:380.531   Value=0x00000002
T97A4 000:380.548 - 0.252ms returns 0
T97A4 000:380.560 JLINK_CORESIGHT_ReadAPDPReg(AP reg 0x03)
T97A4 000:380.819   Value=0x00000002
T97A4 000:380.836 - 0.276ms returns 0
T97A4 000:380.878 JLINK_CORESIGHT_ReadAPDPReg(AP reg 0x03)
T97A4 000:381.121   Value=0x00000002
T97A4 000:381.144 - 0.266ms returns 0
T97A4 000:381.158 JLINK_CORESIGHT_ReadAPDPReg(AP reg 0x03)
T97A4 000:381.443   Value=0x00000002
T97A4 000:381.461 - 0.302ms returns 0
T97A4 000:381.474 JLINK_CORESIGHT_ReadAPDPReg(AP reg 0x03)
T97A4 000:381.744   Value=0x00000002
T97A4 000:381.761 - 0.287ms returns 0
T97A4 000:381.774 JLINK_CORESIGHT_ReadAPDPReg(AP reg 0x03)
T97A4 000:382.012   Value=0x00000002
T97A4 000:382.035 - 0.260ms returns 0
T97A4 000:382.049 JLINK_CORESIGHT_ReadAPDPReg(AP reg 0x03)
T97A4 000:382.307   Value=0x00000002
T97A4 000:382.329 - 0.280ms returns 0
T97A4 000:382.342 JLINK_CORESIGHT_ReadAPDPReg(AP reg 0x03)
T97A4 000:382.571   Value=0x00000002
T97A4 000:382.596 - 0.254ms returns 0
T97A4 000:382.605 JLINK_CORESIGHT_ReadAPDPReg(AP reg 0x03)
T97A4 000:382.848   Value=0x00000002
T97A4 000:382.858 - 0.253ms returns 0
T97A4 000:382.869 JLINK_CORESIGHT_ReadAPDPReg(AP reg 0x03)
T97A4 000:383.122   Value=0x00000002
T97A4 000:383.131 - 0.262ms returns 0
T97A4 000:383.138 JLINK_CORESIGHT_ReadAPDPReg(AP reg 0x03)
T97A4 000:383.443   Value=0x00000002
T97A4 000:383.451 - 0.313ms returns 0
T97A4 000:383.458 JLINK_CORESIGHT_ReadAPDPReg(AP reg 0x03)
T97A4 000:383.666   Value=0x00000002
T97A4 000:383.675 - 0.216ms returns 0
T97A4 000:383.681 JLINK_CORESIGHT_ReadAPDPReg(AP reg 0x03)
T97A4 000:383.899   Value=0x00000002
T97A4 000:383.910 - 0.228ms returns 0
T97A4 000:383.917 JLINK_CORESIGHT_ReadAPDPReg(AP reg 0x03)
T97A4 000:384.130   Value=0x00000002
T97A4 000:384.138 - 0.221ms returns 0
T97A4 000:384.145 JLINK_CORESIGHT_ReadAPDPReg(AP reg 0x03)
T97A4 000:384.448   Value=0x00000002
T97A4 000:384.458 - 0.312ms returns 0
T97A4 000:384.465 JLINK_CORESIGHT_ReadAPDPReg(AP reg 0x03)
T97A4 000:384.690   Value=0x00000002
T97A4 000:384.698 - 0.232ms returns 0
T97A4 000:384.705 JLINK_CORESIGHT_ReadAPDPReg(AP reg 0x03)
T97A4 000:384.940   Value=0x00000002
T97A4 000:384.948 - 0.243ms returns 0
T97A4 000:384.955 JLINK_CORESIGHT_ReadAPDPReg(AP reg 0x03)
T97A4 000:385.164   Value=0x00000002
T97A4 000:385.172 - 0.217ms returns 0
T97A4 000:385.179 JLINK_CORESIGHT_ReadAPDPReg(AP reg 0x03)
T97A4 000:385.421   Value=0x00000002
T97A4 000:385.430 - 0.250ms returns 0
T97A4 000:385.436 JLINK_CORESIGHT_ReadAPDPReg(AP reg 0x03)
T97A4 000:385.651   Value=0x00000002
T97A4 000:385.660 - 0.223ms returns 0
T97A4 000:385.666 JLINK_CORESIGHT_ReadAPDPReg(AP reg 0x03)
T97A4 000:385.883   Value=0x00000002
T97A4 000:385.907 - 0.240ms returns 0
T97A4 000:385.922 JLINK_CORESIGHT_ReadAPDPReg(AP reg 0x03)
T97A4 000:386.152   Value=0x00000002
T97A4 000:386.165 - 0.243ms returns 0
T97A4 000:386.172 JLINK_CORESIGHT_ReadAPDPReg(AP reg 0x03)
T97A4 000:386.445   Value=0x00000002
T97A4 000:386.453 - 0.281ms returns 0
T97A4 000:386.460 JLINK_CORESIGHT_ReadAPDPReg(AP reg 0x03)
T97A4 000:386.669   Value=0x00000002
T97A4 000:386.677 - 0.217ms returns 0
T97A4 000:386.684 JLINK_CORESIGHT_ReadAPDPReg(AP reg 0x03)
T97A4 000:386.903   Value=0x00000002
T97A4 000:386.926 - 0.242ms returns 0
T97A4 000:386.942 JLINK_CORESIGHT_ReadAPDPReg(AP reg 0x03)
T97A4 000:387.166   Value=0x00000002
T97A4 000:387.176 - 0.233ms returns 0
T97A4 000:387.183 JLINK_CORESIGHT_ReadAPDPReg(AP reg 0x03)
T97A4 000:387.421   Value=0x00000002
T97A4 000:387.430 - 0.246ms returns 0
T97A4 000:387.436 JLINK_CORESIGHT_ReadAPDPReg(AP reg 0x03)
T97A4 000:387.652   Value=0x00000002
T97A4 000:387.660 - 0.223ms returns 0
T97A4 000:387.667 JLINK_CORESIGHT_ReadAPDPReg(AP reg 0x03)
T97A4 000:387.882   Value=0x00000002
T97A4 000:387.905 - 0.238ms returns 0
T97A4 000:387.919 JLINK_CORESIGHT_ReadAPDPReg(AP reg 0x03)
T97A4 000:388.151   Value=0x00000002
T97A4 000:388.163 - 0.244ms returns 0
T97A4 000:388.170 JLINK_CORESIGHT_ReadAPDPReg(AP reg 0x03)
T97A4 000:388.443   Value=0x00000002
T97A4 000:388.452 - 0.281ms returns 0
T97A4 000:388.459 JLINK_CORESIGHT_ReadAPDPReg(AP reg 0x03)
T97A4 000:388.668   Value=0x00000002
T97A4 000:388.677 - 0.218ms returns 0
T97A4 000:388.683 JLINK_CORESIGHT_ReadAPDPReg(AP reg 0x03)
T97A4 000:388.900   Value=0x00000002
T97A4 000:388.910 - 0.226ms returns 0
T97A4 000:388.918 JLINK_CORESIGHT_ReadAPDPReg(AP reg 0x03)
T97A4 000:389.130   Value=0x00000000
T97A4 000:389.139 - 0.221ms returns 0
T97A4 000:389.146 JLINK_CORESIGHT_WriteAPDPReg(AP reg 0x00, 0x80000002)
T97A4 000:389.405 - 0.258ms returns 0
T97A4 000:389.412 JLINK_CORESIGHT_WriteAPDPReg(AP reg 0x01, 0x80011130)
T97A4 000:389.584 - 0.171ms returns 0
T97A4 000:389.591 JLINK_CORESIGHT_ReadAPDPReg(AP reg 0x03)
T97A4 000:389.814   Value=0x4E0A0081
T97A4 000:389.822 - 0.231ms returns 0
T97A4 000:389.829 JLINK_CORESIGHT_WriteAPDPReg(AP reg 0x00, 0x80000002)
T97A4 000:390.031 - 0.202ms returns 0
T97A4 000:390.047 JLINK_CORESIGHT_WriteAPDPReg(AP reg 0x01, 0x80011140)
T97A4 000:390.290 - 0.243ms returns 0
T97A4 000:390.352 JLINK_CORESIGHT_ReadAPDPReg(AP reg 0x03)
T97A4 000:391.696   Value=0x00000000
T97A4 000:391.797 - 1.445ms returns 0
T97A4 000:391.815 JLINK_CORESIGHT_WriteAPDPReg(AP reg 0x00, 0x80000002)
T97A4 000:392.230 - 0.414ms returns 0
T97A4 000:392.314 JLINK_CORESIGHT_WriteAPDPReg(AP reg 0x01, 0x80011130)
T97A4 000:392.534 - 0.220ms returns 0
T97A4 000:392.564 JLINK_CORESIGHT_ReadAPDPReg(AP reg 0x03)
T97A4 000:392.826   Value=0xFFFFFF00
T97A4 000:392.856 - 0.291ms returns 0
T97A4 000:392.873 JLINK_CORESIGHT_WriteAPDPReg(AP reg 0x00, 0x80000002)
T97A4 000:393.095 - 0.221ms returns 0
T97A4 000:393.122 JLINK_CORESIGHT_WriteAPDPReg(AP reg 0x01, 0x80011140)
T97A4 000:393.405 - 0.283ms returns 0
T97A4 000:393.445 JLINK_CORESIGHT_ReadAPDPReg(AP reg 0x03)
T97A4 000:393.698   Value=0x00000000
T97A4 000:393.712 - 0.266ms returns 0
T97A4 000:393.722 JLINK_CORESIGHT_WriteAPDPReg(AP reg 0x00, 0x80000002)
T97A4 000:393.922 - 0.200ms returns 0
T97A4 000:393.940 JLINK_CORESIGHT_WriteAPDPReg(AP reg 0x01, 0x80011130)
T97A4 000:394.173 - 0.233ms returns 0
T97A4 000:394.182 JLINK_CORESIGHT_ReadAPDPReg(AP reg 0x03)
T97A4 000:394.429   Value=0xFFFFFFFF
T97A4 000:394.439 - 0.257ms returns 0
T97A4 000:394.447 JLINK_CORESIGHT_WriteAPDPReg(AP reg 0x00, 0x80000002)
T97A4 000:394.636 - 0.188ms returns 0
T97A4 000:394.646 JLINK_CORESIGHT_WriteAPDPReg(AP reg 0x01, 0x80011140)
T97A4 000:394.823 - 0.177ms returns 0
T97A4 000:394.832 JLINK_CORESIGHT_ReadAPDPReg(AP reg 0x03)
T97A4 000:395.039   Value=0x00000000
T97A4 000:395.047 - 0.215ms returns 0
T97A4 000:395.055 JLINK_CORESIGHT_WriteAPDPReg(AP reg 0x00, 0x80000002)
T97A4 000:395.264 - 0.209ms returns 0
T97A4 000:395.274 JLINK_CORESIGHT_WriteAPDPReg(AP reg 0x01, 0x80011130)
T97A4 000:395.457 - 0.183ms returns 0
T97A4 000:395.465 JLINK_CORESIGHT_ReadAPDPReg(AP reg 0x03)
T97A4 000:395.693   Value=0x0003B0FF
T97A4 000:395.702 - 0.236ms returns 0
T97A4 000:395.733 JLINK_CORESIGHT_WriteAPDPReg(AP reg 0x00, 0x80000002)
T97A4 000:395.924 - 0.191ms returns 0
T97A4 000:395.932 JLINK_CORESIGHT_WriteAPDPReg(AP reg 0x01, 0x80011140)
T97A4 000:396.122 - 0.190ms returns 0
T97A4 000:396.130 JLINK_CORESIGHT_ReadAPDPReg(AP reg 0x03)
T97A4 000:396.437   Value=0x00000002
T97A4 000:396.445 - 0.315ms returns 0
T97A4 000:396.452 JLINK_CORESIGHT_WriteAPDPReg(AP reg 0x00, 0x80000002)
T97A4 000:396.652 - 0.199ms returns 0
T97A4 000:396.666 JLINK_CORESIGHT_WriteAPDPReg(AP reg 0x01, 0x80011120)
T97A4 000:396.846 - 0.180ms returns 0
T97A4 000:396.856 JLINK_CORESIGHT_WriteAPDPReg(AP reg 0x03, 0x4F010001)
T97A4 000:397.028 - 0.171ms returns 0
T97A4 000:397.035 JLINK_CORESIGHT_WriteAPDPReg(AP reg 0x00, 0x80000002)
T97A4 000:397.265 - 0.230ms returns 0
T97A4 000:397.274 JLINK_CORESIGHT_WriteAPDPReg(AP reg 0x01, 0x80011140)
T97A4 000:397.461 - 0.186ms returns 0
T97A4 000:397.468 JLINK_CORESIGHT_ReadAPDPReg(AP reg 0x03)
T97A4 000:397.692   Value=0x00000002
T97A4 000:397.702 - 0.234ms returns 0
T97A4 000:397.710 JLINK_CORESIGHT_WriteAPDPReg(AP reg 0x00, 0x80000002)
T97A4 000:397.902 - 0.192ms returns 0
T97A4 000:397.910 JLINK_CORESIGHT_WriteAPDPReg(AP reg 0x01, 0x80011120)
T97A4 000:398.161 - 0.251ms returns 0
T97A4 000:398.168 JLINK_CORESIGHT_WriteAPDPReg(AP reg 0x03, 0x000003B0)
T97A4 000:398.406 - 0.238ms returns 0
T97A4 000:398.416 JLINK_CORESIGHT_WriteAPDPReg(AP reg 0x00, 0x80000002)
T97A4 000:398.622 - 0.206ms returns 0
T97A4 000:398.630 JLINK_CORESIGHT_WriteAPDPReg(AP reg 0x01, 0x80011140)
T97A4 000:398.803 - 0.173ms returns 0
T97A4 000:398.815 JLINK_CORESIGHT_ReadAPDPReg(AP reg 0x03)
T97A4 000:399.050   Value=0x00000000
T97A4 000:399.059 - 0.243ms returns 0
T97A4 000:399.066 JLINK_CORESIGHT_WriteAPDPReg(AP reg 0x00, 0x80000002)
T97A4 000:399.266 - 0.200ms returns 0
T97A4 000:399.276 JLINK_CORESIGHT_WriteAPDPReg(AP reg 0x01, 0x80011130)
T97A4 000:399.456 - 0.180ms returns 0
T97A4 000:399.464 JLINK_CORESIGHT_ReadAPDPReg(AP reg 0x03)
T97A4 000:399.694   Value=0x4F0B0081
T97A4 000:399.702 - 0.238ms returns 0
T97A4 000:399.709 JLINK_CORESIGHT_WriteAPDPReg(AP reg 0x00, 0x80000002)
T97A4 000:399.910 - 0.200ms returns 0
T97A4 000:399.940 JLINK_CORESIGHT_WriteAPDPReg(AP reg 0x01, 0x80011140)
T97A4 000:400.156 - 0.215ms returns 0
T97A4 000:400.185 JLINK_CORESIGHT_ReadAPDPReg(AP reg 0x03)
T97A4 000:400.422   Value=0x00000000
T97A4 000:400.450 - 0.265ms returns 0
T97A4 000:400.460 JLINK_CORESIGHT_WriteAPDPReg(AP reg 0x00, 0x80000002)
T97A4 000:400.651 - 0.190ms returns 0
T97A4 000:400.660 JLINK_CORESIGHT_WriteAPDPReg(AP reg 0x01, 0x80011130)
T97A4 000:400.847 - 0.186ms returns 0
T97A4 000:400.869 JLINK_CORESIGHT_ReadAPDPReg(AP reg 0x03)
T97A4 000:401.131   Value=0x20001600
T97A4 000:401.153 - 0.283ms returns 0
T97A4 000:401.167 JLINK_CORESIGHT_WriteAPDPReg(AP reg 0x00, 0x80000002)
T97A4 000:401.411 - 0.244ms returns 0
T97A4 000:401.434 JLINK_CORESIGHT_WriteAPDPReg(AP reg 0x01, 0x80011140)
T97A4 000:401.631 - 0.196ms returns 0
T97A4 000:401.651 JLINK_CORESIGHT_ReadAPDPReg(AP reg 0x03)
T97A4 000:401.905   Value=0x00000000
T97A4 000:401.929 - 0.277ms returns 0
T97A4 000:401.942 JLINK_CORESIGHT_WriteAPDPReg(AP reg 0x00, 0x80000002)
T97A4 000:402.158 - 0.216ms returns 0
T97A4 000:402.173 JLINK_CORESIGHT_WriteAPDPReg(AP reg 0x01, 0x80011130)
T97A4 000:402.413 - 0.239ms returns 0
T97A4 000:402.433 JLINK_CORESIGHT_ReadAPDPReg(AP reg 0x03)
T97A4 000:402.680   Value=0x0B000000
T97A4 000:402.693 - 0.259ms returns 0
T97A4 000:402.700 JLINK_CORESIGHT_WriteAPDPReg(AP reg 0x00, 0x80000002)
T97A4 000:402.904 - 0.203ms returns 0
T97A4 000:402.926 JLINK_CORESIGHT_WriteAPDPReg(AP reg 0x01, 0x80011140)
T97A4 000:403.151 - 0.226ms returns 0
T97A4 000:403.163 JLINK_CORESIGHT_ReadAPDPReg(AP reg 0x03)
T97A4 000:403.420   Value=0x00000000
T97A4 000:403.450 - 0.286ms returns 0
T97A4 000:403.458 JLINK_CORESIGHT_WriteAPDPReg(AP reg 0x00, 0x80000002)
T97A4 000:403.652 - 0.194ms returns 0
T97A4 000:403.660 JLINK_CORESIGHT_WriteAPDPReg(AP reg 0x01, 0x80011130)
T97A4 000:403.841 - 0.181ms returns 0
T97A4 000:403.848 JLINK_CORESIGHT_ReadAPDPReg(AP reg 0x03)
T97A4 000:404.082   Value=0x03551000
T97A4 000:404.091 - 0.243ms returns 0
T97A4 000:404.194 JLINK_CORESIGHT_WriteAPDPReg(AP reg 0x00, 0x80000002)
T97A4 000:404.399 - 0.205ms returns 0
T97A4 000:404.416 JLINK_CORESIGHT_WriteAPDPReg(AP reg 0x01, 0x80011140)
T97A4 000:404.588 - 0.171ms returns 0
T97A4 000:404.600 JLINK_CORESIGHT_ReadAPDPReg(AP reg 0x03)
T97A4 000:404.812   Value=0x00000002
T97A4 000:404.821 - 0.221ms returns 0
T97A4 000:404.828 JLINK_CORESIGHT_WriteAPDPReg(AP reg 0x00, 0x80000002)
T97A4 000:405.030 - 0.201ms returns 0
T97A4 000:405.037 JLINK_CORESIGHT_WriteAPDPReg(AP reg 0x01, 0x80011120)
T97A4 000:405.265 - 0.228ms returns 0
T97A4 000:405.273 JLINK_CORESIGHT_WriteAPDPReg(AP reg 0x03, 0x4F010001)
T97A4 000:405.450 - 0.177ms returns 0
T97A4 000:405.460 JLINK_CORESIGHT_WriteAPDPReg(AP reg 0x00, 0x80000002)
T97A4 000:405.654 - 0.194ms returns 0
T97A4 000:405.693 JLINK_CORESIGHT_WriteAPDPReg(AP reg 0x01, 0x80011140)
T97A4 000:405.973 - 0.286ms returns 0
T97A4 000:405.998 JLINK_CORESIGHT_ReadAPDPReg(AP reg 0x03)
T97A4 000:406.280   Value=0x00000002
T97A4 000:406.303 - 0.305ms returns 0
T97A4 000:406.317 JLINK_CORESIGHT_WriteAPDPReg(AP reg 0x00, 0x80000002)
T97A4 000:406.533 - 0.215ms returns 0
T97A4 000:406.553 JLINK_CORESIGHT_WriteAPDPReg(AP reg 0x01, 0x80011120)
T97A4 000:406.756 - 0.203ms returns 0
T97A4 000:406.776 JLINK_CORESIGHT_WriteAPDPReg(AP reg 0x03, 0x000003B0)
T97A4 000:407.110 - 0.333ms returns 0
T97A4 000:407.137 JLINK_CORESIGHT_WriteAPDPReg(AP reg 0x00, 0x80000002)
T97A4 000:407.494 - 0.356ms returns 0
T97A4 000:407.520 JLINK_CORESIGHT_WriteAPDPReg(AP reg 0x01, 0x80011140)
T97A4 000:407.742 - 0.221ms returns 0
T97A4 000:407.783 JLINK_CORESIGHT_ReadAPDPReg(AP reg 0x03)
T97A4 000:408.049   Value=0x00000000
T97A4 000:408.076 - 0.292ms returns 0
T97A4 000:408.091 JLINK_CORESIGHT_WriteAPDPReg(AP reg 0x00, 0x80000002)
T97A4 000:408.309 - 0.218ms returns 0
T97A4 000:408.361 JLINK_CORESIGHT_WriteAPDPReg(AP reg 0x01, 0x80011130)
T97A4 000:408.587 - 0.226ms returns 0
T97A4 000:408.610 JLINK_CORESIGHT_ReadAPDPReg(AP reg 0x03)
T97A4 000:408.864   Value=0x4F0B0081
T97A4 000:408.884 - 0.274ms returns 0
T97A4 000:408.897 JLINK_CORESIGHT_WriteAPDPReg(AP reg 0x00, 0x80000002)
T97A4 000:409.090 - 0.193ms returns 0
T97A4 000:409.104 JLINK_CORESIGHT_WriteAPDPReg(AP reg 0x01, 0x80011140)
T97A4 000:409.278 - 0.174ms returns 0
T97A4 000:409.292 JLINK_CORESIGHT_ReadAPDPReg(AP reg 0x03)
T97A4 000:409.555   Value=0x00000000
T97A4 000:409.579 - 0.287ms returns 0
T97A4 000:409.593 JLINK_CORESIGHT_WriteAPDPReg(AP reg 0x00, 0x80000002)
T97A4 000:409.795 - 0.201ms returns 0
T97A4 000:409.810 JLINK_CORESIGHT_WriteAPDPReg(AP reg 0x01, 0x80011130)
T97A4 000:410.019 - 0.209ms returns 0
T97A4 000:410.037 JLINK_CORESIGHT_ReadAPDPReg(AP reg 0x03)
T97A4 000:410.311   Value=0x20001600
T97A4 000:410.320 - 0.283ms returns 0
T97A4 000:410.342 JLINK_CORESIGHT_WriteAPDPReg(AP reg 0x00, 0x80000002)
T97A4 000:410.546 - 0.203ms returns 0
T97A4 000:410.562 JLINK_CORESIGHT_WriteAPDPReg(AP reg 0x01, 0x80011140)
T97A4 000:410.765 - 0.203ms returns 0
T97A4 000:410.780 JLINK_CORESIGHT_ReadAPDPReg(AP reg 0x03)
T97A4 000:411.022   Value=0x00000000
T97A4 000:411.035 - 0.255ms returns 0
T97A4 000:411.043 JLINK_CORESIGHT_WriteAPDPReg(AP reg 0x00, 0x80000002)
T97A4 000:411.284 - 0.241ms returns 0
T97A4 000:411.293 JLINK_CORESIGHT_WriteAPDPReg(AP reg 0x01, 0x80011130)
T97A4 000:411.481 - 0.188ms returns 0
T97A4 000:411.503 JLINK_CORESIGHT_ReadAPDPReg(AP reg 0x03)
T97A4 000:411.787   Value=0x0B000000
T97A4 000:411.808 - 0.305ms returns 0
T97A4 000:411.821 JLINK_CORESIGHT_WriteAPDPReg(AP reg 0x00, 0x80000002)
T97A4 000:412.265 - 0.443ms returns 0
T97A4 000:412.275 JLINK_CORESIGHT_WriteAPDPReg(AP reg 0x01, 0x80011140)
T97A4 000:412.475 - 0.199ms returns 0
T97A4 000:412.486 JLINK_CORESIGHT_ReadAPDPReg(AP reg 0x03)
T97A4 000:412.742   Value=0x00000000
